T8D44 4907:497.256   SEGGER J-Link V7.94a Log File
T8D44 4907:497.326   DLL Compiled: Dec  6 2023 16:01:39
T8D44 4907:497.338   Logging started @ 2023-12-12 21:25
T8D44 4907:497.351   Process: C:\Program Files (x86)\Atmel\Studio\7.0\atbackend\atbackend.exe
T8D44 4907:497.364 - 8230.301ms
T8D44 4907:500.811 JLINK_ExecCommand("Device = ATSAMD21G18A", ...). 
T8D44 4907:501.004   Device "ATSAMD21G18A" selected.
T8D44 4907:501.218 - 0.378ms returns 0x00
T8D44 4907:516.821 JLINK_TIF_Select(JLINKARM_TIF_SWD)
T8D44 4907:517.286 - 0.464ms returns 0x00
T8D44 4907:517.319 JLINK_SetSpeed(4000)
T8D44 4907:517.380 - 0.061ms
T8D44 4907:517.394 JLINK_ResetPullsRESET(OFF)
T8D44 4907:517.406 - 0.011ms
T8D44 4907:517.417 JLINK_Connect()
T8D44 4907:517.712   InitTarget() start
T8D44 4907:517.721    J-Link Script File: Executing InitTarget()
T8D44 4907:517.731   InitTarget()
T8D44 4907:520.078   InitTarget() end - Took 2.34ms
T8D44 4907:520.606   Found SW-DP with ID 0x0BC11477
T8D44 4907:522.444   DPIDR: 0x0BC11477
T8D44 4907:522.459   CoreSight SoC-400 or earlier
T8D44 4907:522.470   Scanning AP map to find all available APs
T8D44 4907:523.044   AP[1]: Stopped AP scan as end of AP map has been reached
T8D44 4907:523.060   AP[0]: AHB-AP (IDR: 0x04770031)
T8D44 4907:523.071   Iterating through AP map to find AHB-AP to use
T8D44 4907:523.906   AP[0]: Core found
T8D44 4907:523.922   AP[0]: AHB-AP ROM base: 0x41003000
T8D44 4907:524.314   CPUID register: 0x410CC601. Implementer code: 0x41 (ARM)
T8D44 4907:524.327   Found Cortex-M0 r0p1, Little endian.
T8D44 4907:524.593   -- Max. mem block: 0x00002B08
T8D44 4907:524.952   CPU_ReadMem(4 bytes @ 0xE000EDF0)
T8D44 4907:525.212   CPU_WriteMem(4 bytes @ 0xE000EDF0)
T8D44 4907:525.498   CPU_ReadMem(4 bytes @ 0xE0002000)
T8D44 4907:525.763   FPUnit: 4 code (BP) slots and 0 literal slots
T8D44 4907:525.771   CPU_ReadMem(4 bytes @ 0xE000EDFC)
T8D44 4907:526.023   CPU_WriteMem(4 bytes @ 0xE000EDFC)
T8D44 4907:526.350   CPU_ReadMem(4 bytes @ 0xE0001000)
T8D44 4907:526.631   CPU_WriteMem(4 bytes @ 0xE0001000)
T8D44 4907:526.924   CoreSight components:
T8D44 4907:526.936   ROMTbl[0] @ 41003000
T8D44 4907:526.943   CPU_ReadMem(64 bytes @ 0x41003000)
T8D44 4907:527.642   CPU_ReadMem(32 bytes @ 0xE00FFFE0)
T8D44 4907:528.102   [0][0]: E00FF000 CID B105100D PID 000BB4C0 ROM Table
T8D44 4907:528.113   ROMTbl[1] @ E00FF000
T8D44 4907:528.120   CPU_ReadMem(64 bytes @ 0xE00FF000)
T8D44 4907:528.768   CPU_ReadMem(32 bytes @ 0xE000EFE0)
T8D44 4907:529.214   [1][0]: E000E000 CID B105E00D PID 000BB008 SCS
T8D44 4907:529.223   CPU_ReadMem(32 bytes @ 0xE0001FE0)
T8D44 4907:529.714   [1][1]: E0001000 CID B105E00D PID 000BB00A DWT
T8D44 4907:529.724   CPU_ReadMem(32 bytes @ 0xE0002FE0)
T8D44 4907:530.162   [1][2]: E0002000 CID B105E00D PID 000BB00B FPB
T8D44 4907:530.176   CPU_ReadMem(32 bytes @ 0x41006FE0)
T8D44 4907:530.702   [0][1]: 41006000 CID B105900D PID 001BB932 MTB-M0+
T8D44 4907:530.716 - 13.298ms returns 0x00
T8D44 4907:530.745 JLINK_ExecCommand("ExcludeFlashCacheRange 0x0 - 0x40000", ...). 
T8D44 4907:530.752 - 0.000ms returns 0x00
T8D44 4907:530.808 JLINK_Halt()
T8D44 4907:533.496 - 2.688ms returns 0x00
T8D44 4907:534.188 JLINK_JTAG_GetDeviceID(DeviceIndex = 0)
T8D44 4907:534.198 - 0.010ms returns 0
T8D44 4907:534.204 JLINK_ReadMemU32(0x41002018, 0x1 Items)
T8D44 4907:534.215   CPU_ReadMem(4 bytes @ 0x41002018)
T8D44 4907:534.480   Data:  05 03 01 10
T8D44 4907:534.492 - 0.288ms returns 1 (0x1)
T1E58 4907:543.186 JLINK_IsHalted()
T1E58 4907:543.528 - 0.342ms returns TRUE
T1E58 4907:543.536 JLINK_GetMOEs(...)
T1E58 4907:543.544   CPU_ReadMem(4 bytes @ 0xE000ED30)
T1E58 4907:543.801 - 0.264ms returns 0x01
T1E58 4907:543.808 JLINK_ReadReg(R15 (PC))
T1E58 4907:543.814 - 0.006ms returns 0x0001C4E6
T8D44 4907:573.766 JLINK_BeginDownload(Flags = 0x00000000)
T8D44 4907:573.794 - 0.028ms
T8D44 4907:573.807 JLINK_WriteMem(0x00012000, 0x145D8 Bytes, ...)
T8D44 4907:573.813   Data:  58 6B 00 20 69 12 02 00 61 13 02 00 61 13 02 00 ...
T8D44 4907:574.086   completely In flash
T8D44 4907:574.161 - 0.354ms returns 0x145D8
T8D44 4907:574.359 JLINK_WriteMem(0x000265D8, 0x228 Bytes, ...)
T8D44 4907:574.368   Data:  00 00 00 00 0C 00 00 00 00 00 00 00 00 00 00 00 ...
T8D44 4907:574.379   completely In flash
T8D44 4907:574.386 - 0.027ms returns 0x228
T8D44 4907:587.167 JLINK_EndDownload()
T8D44 4907:587.353   CPU_ReadMem(4 bytes @ 0x41006004)
T8D44 4907:587.629   CPU_ReadMem(4 bytes @ 0xE000ED90)
T8D44 4907:587.886    -- --------------------------------------
T8D44 4907:587.893    -- Flash bank @ 0x00000000: Default: L2 verify disabled because algorithm performs L1 verify
T8D44 4907:587.900    -- Start of determining dirty areas in flash cache
T8D44 4907:587.916    -- Filling invalid ranges in sector buffer (flash cache) for sector @ 0x00012000 if necessary
T8D44 4907:587.922    -- Filling invalid ranges in sector buffer (flash cache) for sector @ 0x00012100 if necessary
T8D44 4907:587.929    -- Filling invalid ranges in sector buffer (flash cache) for sector @ 0x00012200 if necessary
T8D44 4907:587.935    -- Filling invalid ranges in sector buffer (flash cache) for sector @ 0x00012300 if necessary
T8D44 4907:587.941    -- Filling invalid ranges in sector buffer (flash cache) for sector @ 0x00012400 if necessary
T8D44 4907:587.947    -- Filling invalid ranges in sector buffer (flash cache) for sector @ 0x00012500 if necessary
T8D44 4907:587.953    -- Filling invalid ranges in sector buffer (flash cache) for sector @ 0x00012600 if necessary
T8D44 4907:587.963    -- Filling invalid ranges in sector buffer (flash cache) for sector @ 0x00012700 if necessary
T8D44 4907:587.970    -- Filling invalid ranges in sector buffer (flash cache) for sector @ 0x00012800 if necessary
T8D44 4907:587.976    -- Filling invalid ranges in sector buffer (flash cache) for sector @ 0x00012900 if necessary
T8D44 4907:587.982    -- Filling invalid ranges in sector buffer (flash cache) for sector @ 0x00012A00 if necessary
T8D44 4907:587.988    -- Filling invalid ranges in sector buffer (flash cache) for sector @ 0x00012B00 if necessary
T8D44 4907:587.994    -- Filling invalid ranges in sector buffer (flash cache) for sector @ 0x00012C00 if necessary
T8D44 4907:588.000    -- Filling invalid ranges in sector buffer (flash cache) for sector @ 0x00012D00 if necessary
T8D44 4907:588.006    -- Filling invalid ranges in sector buffer (flash cache) for sector @ 0x00012E00 if necessary
T8D44 4907:588.012    -- Filling invalid ranges in sector buffer (flash cache) for sector @ 0x00012F00 if necessary
T8D44 4907:588.018    -- Filling invalid ranges in sector buffer (flash cache) for sector @ 0x00013000 if necessary
T8D44 4907:588.024    -- Filling invalid ranges in sector buffer (flash cache) for sector @ 0x00013100 if necessary
T8D44 4907:588.031    -- Filling invalid ranges in sector buffer (flash cache) for sector @ 0x00013200 if necessary
T8D44 4907:588.037    -- Filling invalid ranges in sector buffer (flash cache) for sector @ 0x00013300 if necessary
T8D44 4907:588.043    -- Filling invalid ranges in sector buffer (flash cache) for sector @ 0x00013400 if necessary
T8D44 4907:588.049    -- Filling invalid ranges in sector buffer (flash cache) for sector @ 0x00013500 if necessary
T8D44 4907:588.055    -- Filling invalid ranges in sector buffer (flash cache) for sector @ 0x00013600 if necessary
T8D44 4907:588.061    -- Filling invalid ranges in sector buffer (flash cache) for sector @ 0x00013700 if necessary
T8D44 4907:588.067    -- Filling invalid ranges in sector buffer (flash cache) for sector @ 0x00013800 if necessary
T8D44 4907:588.073    -- Filling invalid ranges in sector buffer (flash cache) for sector @ 0x00013900 if necessary
T8D44 4907:588.080    -- Filling invalid ranges in sector buffer (flash cache) for sector @ 0x00013A00 if necessary
T8D44 4907:588.086    -- Filling invalid ranges in sector buffer (flash cache) for sector @ 0x00013B00 if necessary
T8D44 4907:588.092    -- Filling invalid ranges in sector buffer (flash cache) for sector @ 0x00013C00 if necessary
T8D44 4907:588.130    -- Filling invalid ranges in sector buffer (flash cache) for sector @ 0x00013D00 if necessary
T8D44 4907:588.136    -- Filling invalid ranges in sector buffer (flash cache) for sector @ 0x00013E00 if necessary
T8D44 4907:588.142    -- Filling invalid ranges in sector buffer (flash cache) for sector @ 0x00013F00 if necessary
T8D44 4907:588.149    -- Filling invalid ranges in sector buffer (flash cache) for sector @ 0x00014000 if necessary
T8D44 4907:588.155    -- Filling invalid ranges in sector buffer (flash cache) for sector @ 0x00014100 if necessary
T8D44 4907:588.161    -- Filling invalid ranges in sector buffer (flash cache) for sector @ 0x00014200 if necessary
T8D44 4907:588.167    -- Filling invalid ranges in sector buffer (flash cache) for sector @ 0x00014300 if necessary
T8D44 4907:588.173    -- Filling invalid ranges in sector buffer (flash cache) for sector @ 0x00014400 if necessary
T8D44 4907:588.179    -- Filling invalid ranges in sector buffer (flash cache) for sector @ 0x00014500 if necessary
T8D44 4907:588.185    -- Filling invalid ranges in sector buffer (flash cache) for sector @ 0x00014600 if necessary
T8D44 4907:588.191    -- Filling invalid ranges in sector buffer (flash cache) for sector @ 0x00014700 if necessary
T8D44 4907:588.197    -- Filling invalid ranges in sector buffer (flash cache) for sector @ 0x00014800 if necessary
T8D44 4907:588.204    -- Filling invalid ranges in sector buffer (flash cache) for sector @ 0x00014900 if necessary
T8D44 4907:588.210    -- Filling invalid ranges in sector buffer (flash cache) for sector @ 0x00014A00 if necessary
T8D44 4907:588.216    -- Filling invalid ranges in sector buffer (flash cache) for sector @ 0x00014B00 if necessary
T8D44 4907:588.222    -- Filling invalid ranges in sector buffer (flash cache) for sector @ 0x00014C00 if necessary
T8D44 4907:588.228    -- Filling invalid ranges in sector buffer (flash cache) for sector @ 0x00014D00 if necessary
T8D44 4907:588.234    -- Filling invalid ranges in sector buffer (flash cache) for sector @ 0x00014E00 if necessary
T8D44 4907:588.240    -- Filling invalid ranges in sector buffer (flash cache) for sector @ 0x00014F00 if necessary
T8D44 4907:588.246    -- Filling invalid ranges in sector buffer (flash cache) for sector @ 0x00015000 if necessary
T8D44 4907:588.252    -- Filling invalid ranges in sector buffer (flash cache) for sector @ 0x00015100 if necessary
T8D44 4907:588.258    -- Filling invalid ranges in sector buffer (flash cache) for sector @ 0x00015200 if necessary
T8D44 4907:588.264    -- Filling invalid ranges in sector buffer (flash cache) for sector @ 0x00015300 if necessary
T8D44 4907:588.271    -- Filling invalid ranges in sector buffer (flash cache) for sector @ 0x00015400 if necessary
T8D44 4907:588.277    -- Filling invalid ranges in sector buffer (flash cache) for sector @ 0x00015500 if necessary
T8D44 4907:588.283    -- Filling invalid ranges in sector buffer (flash cache) for sector @ 0x00015600 if necessary
T8D44 4907:588.289    -- Filling invalid ranges in sector buffer (flash cache) for sector @ 0x00015700 if necessary
T8D44 4907:588.295    -- Filling invalid ranges in sector buffer (flash cache) for sector @ 0x00015800 if necessary
T8D44 4907:588.301    -- Filling invalid ranges in sector buffer (flash cache) for sector @ 0x00015900 if necessary
T8D44 4907:588.307    -- Filling invalid ranges in sector buffer (flash cache) for sector @ 0x00015A00 if necessary
T8D44 4907:588.313    -- Filling invalid ranges in sector buffer (flash cache) for sector @ 0x00015B00 if necessary
T8D44 4907:588.319    -- Filling invalid ranges in sector buffer (flash cache) for sector @ 0x00015C00 if necessary
T8D44 4907:588.325    -- Filling invalid ranges in sector buffer (flash cache) for sector @ 0x00015D00 if necessary
T8D44 4907:588.331    -- Filling invalid ranges in sector buffer (flash cache) for sector @ 0x00015E00 if necessary
T8D44 4907:588.337    -- Filling invalid ranges in sector buffer (flash cache) for sector @ 0x00015F00 if necessary
T8D44 4907:588.345    -- Filling invalid ranges in sector buffer (flash cache) for sector @ 0x00016000 if necessary
T8D44 4907:588.351    -- Filling invalid ranges in sector buffer (flash cache) for sector @ 0x00016100 if necessary
T8D44 4907:588.357    -- Filling invalid ranges in sector buffer (flash cache) for sector @ 0x00016200 if necessary
T8D44 4907:588.363    -- Filling invalid ranges in sector buffer (flash cache) for sector @ 0x00016300 if necessary
T8D44 4907:588.369    -- Filling invalid ranges in sector buffer (flash cache) for sector @ 0x00016400 if necessary
T8D44 4907:588.375    -- Filling invalid ranges in sector buffer (flash cache) for sector @ 0x00016500 if necessary
T8D44 4907:588.381    -- Filling invalid ranges in sector buffer (flash cache) for sector @ 0x00016600 if necessary
T8D44 4907:588.387    -- Filling invalid ranges in sector buffer (flash cache) for sector @ 0x00016700 if necessary
T8D44 4907:588.393    -- Filling invalid ranges in sector buffer (flash cache) for sector @ 0x00016800 if necessary
T8D44 4907:588.400    -- Filling invalid ranges in sector buffer (flash cache) for sector @ 0x00016900 if necessary
T8D44 4907:588.406    -- Filling invalid ranges in sector buffer (flash cache) for sector @ 0x00016A00 if necessary
T8D44 4907:588.412    -- Filling invalid ranges in sector buffer (flash cache) for sector @ 0x00016B00 if necessary
T8D44 4907:588.418    -- Filling invalid ranges in sector buffer (flash cache) for sector @ 0x00016C00 if necessary
T8D44 4907:588.424    -- Filling invalid ranges in sector buffer (flash cache) for sector @ 0x00016D00 if necessary
T8D44 4907:588.430    -- Filling invalid ranges in sector buffer (flash cache) for sector @ 0x00016E00 if necessary
T8D44 4907:588.436    -- Filling invalid ranges in sector buffer (flash cache) for sector @ 0x00016F00 if necessary
T8D44 4907:588.442    -- Filling invalid ranges in sector buffer (flash cache) for sector @ 0x00017000 if necessary
T8D44 4907:588.448    -- Filling invalid ranges in sector buffer (flash cache) for sector @ 0x00017100 if necessary
T8D44 4907:588.454    -- Filling invalid ranges in sector buffer (flash cache) for sector @ 0x00017200 if necessary
T8D44 4907:588.460    -- Filling invalid ranges in sector buffer (flash cache) for sector @ 0x00017300 if necessary
T8D44 4907:588.466    -- Filling invalid ranges in sector buffer (flash cache) for sector @ 0x00017400 if necessary
T8D44 4907:588.472    -- Filling invalid ranges in sector buffer (flash cache) for sector @ 0x00017500 if necessary
T8D44 4907:588.478    -- Filling invalid ranges in sector buffer (flash cache) for sector @ 0x00017600 if necessary
T8D44 4907:588.484    -- Filling invalid ranges in sector buffer (flash cache) for sector @ 0x00017700 if necessary
T8D44 4907:588.494    -- Filling invalid ranges in sector buffer (flash cache) for sector @ 0x00017800 if necessary
T8D44 4907:588.501    -- Filling invalid ranges in sector buffer (flash cache) for sector @ 0x00017900 if necessary
T8D44 4907:588.507    -- Filling invalid ranges in sector buffer (flash cache) for sector @ 0x00017A00 if necessary
T8D44 4907:588.513    -- Filling invalid ranges in sector buffer (flash cache) for sector @ 0x00017B00 if necessary
T8D44 4907:588.519    -- Filling invalid ranges in sector buffer (flash cache) for sector @ 0x00017C00 if necessary
T8D44 4907:588.525    -- Filling invalid ranges in sector buffer (flash cache) for sector @ 0x00017D00 if necessary
T8D44 4907:588.531    -- Filling invalid ranges in sector buffer (flash cache) for sector @ 0x00017E00 if necessary
T8D44 4907:588.537    -- Filling invalid ranges in sector buffer (flash cache) for sector @ 0x00017F00 if necessary
T8D44 4907:588.543    -- Filling invalid ranges in sector buffer (flash cache) for sector @ 0x00018000 if necessary
T8D44 4907:588.549    -- Filling invalid ranges in sector buffer (flash cache) for sector @ 0x00018100 if necessary
T8D44 4907:588.555    -- Filling invalid ranges in sector buffer (flash cache) for sector @ 0x00018200 if necessary
T8D44 4907:588.575    -- Filling invalid ranges in sector buffer (flash cache) for sector @ 0x00018300 if necessary
T8D44 4907:588.581    -- Filling invalid ranges in sector buffer (flash cache) for sector @ 0x00018400 if necessary
T8D44 4907:588.587    -- Filling invalid ranges in sector buffer (flash cache) for sector @ 0x00018500 if necessary
T8D44 4907:588.593    -- Filling invalid ranges in sector buffer (flash cache) for sector @ 0x00018600 if necessary
T8D44 4907:588.599    -- Filling invalid ranges in sector buffer (flash cache) for sector @ 0x00018700 if necessary
T8D44 4907:588.605    -- Filling invalid ranges in sector buffer (flash cache) for sector @ 0x00018800 if necessary
T8D44 4907:588.611    -- Filling invalid ranges in sector buffer (flash cache) for sector @ 0x00018900 if necessary
T8D44 4907:588.617    -- Filling invalid ranges in sector buffer (flash cache) for sector @ 0x00018A00 if necessary
T8D44 4907:588.623    -- Filling invalid ranges in sector buffer (flash cache) for sector @ 0x00018B00 if necessary
T8D44 4907:588.629    -- Filling invalid ranges in sector buffer (flash cache) for sector @ 0x00018C00 if necessary
T8D44 4907:588.635    -- Filling invalid ranges in sector buffer (flash cache) for sector @ 0x00018D00 if necessary
T8D44 4907:588.641    -- Filling invalid ranges in sector buffer (flash cache) for sector @ 0x00018E00 if necessary
T8D44 4907:588.647    -- Filling invalid ranges in sector buffer (flash cache) for sector @ 0x00018F00 if necessary
T8D44 4907:588.654    -- Filling invalid ranges in sector buffer (flash cache) for sector @ 0x00019000 if necessary
T8D44 4907:588.660    -- Filling invalid ranges in sector buffer (flash cache) for sector @ 0x00019100 if necessary
T8D44 4907:588.666    -- Filling invalid ranges in sector buffer (flash cache) for sector @ 0x00019200 if necessary
T8D44 4907:588.672    -- Filling invalid ranges in sector buffer (flash cache) for sector @ 0x00019300 if necessary
T8D44 4907:588.678    -- Filling invalid ranges in sector buffer (flash cache) for sector @ 0x00019400 if necessary
T8D44 4907:588.684    -- Filling invalid ranges in sector buffer (flash cache) for sector @ 0x00019500 if necessary
T8D44 4907:588.690    -- Filling invalid ranges in sector buffer (flash cache) for sector @ 0x00019600 if necessary
T8D44 4907:588.696    -- Filling invalid ranges in sector buffer (flash cache) for sector @ 0x00019700 if necessary
T8D44 4907:588.702    -- Filling invalid ranges in sector buffer (flash cache) for sector @ 0x00019800 if necessary
T8D44 4907:588.708    -- Filling invalid ranges in sector buffer (flash cache) for sector @ 0x00019900 if necessary
T8D44 4907:588.714    -- Filling invalid ranges in sector buffer (flash cache) for sector @ 0x00019A00 if necessary
T8D44 4907:588.720    -- Filling invalid ranges in sector buffer (flash cache) for sector @ 0x00019B00 if necessary
T8D44 4907:588.726    -- Filling invalid ranges in sector buffer (flash cache) for sector @ 0x00019C00 if necessary
T8D44 4907:588.732    -- Filling invalid ranges in sector buffer (flash cache) for sector @ 0x00019D00 if necessary
T8D44 4907:588.738    -- Filling invalid ranges in sector buffer (flash cache) for sector @ 0x00019E00 if necessary
T8D44 4907:588.744    -- Filling invalid ranges in sector buffer (flash cache) for sector @ 0x00019F00 if necessary
T8D44 4907:588.751    -- Filling invalid ranges in sector buffer (flash cache) for sector @ 0x0001A000 if necessary
T8D44 4907:588.757    -- Filling invalid ranges in sector buffer (flash cache) for sector @ 0x0001A100 if necessary
T8D44 4907:588.763    -- Filling invalid ranges in sector buffer (flash cache) for sector @ 0x0001A200 if necessary
T8D44 4907:588.769    -- Filling invalid ranges in sector buffer (flash cache) for sector @ 0x0001A300 if necessary
T8D44 4907:588.775    -- Filling invalid ranges in sector buffer (flash cache) for sector @ 0x0001A400 if necessary
T8D44 4907:588.781    -- Filling invalid ranges in sector buffer (flash cache) for sector @ 0x0001A500 if necessary
T8D44 4907:588.788    -- Filling invalid ranges in sector buffer (flash cache) for sector @ 0x0001A600 if necessary
T8D44 4907:588.794    -- Filling invalid ranges in sector buffer (flash cache) for sector @ 0x0001A700 if necessary
T8D44 4907:588.800    -- Filling invalid ranges in sector buffer (flash cache) for sector @ 0x0001A800 if necessary
T8D44 4907:588.806    -- Filling invalid ranges in sector buffer (flash cache) for sector @ 0x0001A900 if necessary
T8D44 4907:588.812    -- Filling invalid ranges in sector buffer (flash cache) for sector @ 0x0001AA00 if necessary
T8D44 4907:588.818    -- Filling invalid ranges in sector buffer (flash cache) for sector @ 0x0001AB00 if necessary
T8D44 4907:588.825    -- Filling invalid ranges in sector buffer (flash cache) for sector @ 0x0001AC00 if necessary
T8D44 4907:588.831    -- Filling invalid ranges in sector buffer (flash cache) for sector @ 0x0001AD00 if necessary
T8D44 4907:588.837    -- Filling invalid ranges in sector buffer (flash cache) for sector @ 0x0001AE00 if necessary
T8D44 4907:588.843    -- Filling invalid ranges in sector buffer (flash cache) for sector @ 0x0001AF00 if necessary
T8D44 4907:588.849    -- Filling invalid ranges in sector buffer (flash cache) for sector @ 0x0001B000 if necessary
T8D44 4907:588.855    -- Filling invalid ranges in sector buffer (flash cache) for sector @ 0x0001B100 if necessary
T8D44 4907:588.861    -- Filling invalid ranges in sector buffer (flash cache) for sector @ 0x0001B200 if necessary
T8D44 4907:588.867    -- Filling invalid ranges in sector buffer (flash cache) for sector @ 0x0001B300 if necessary
T8D44 4907:588.873    -- Filling invalid ranges in sector buffer (flash cache) for sector @ 0x0001B400 if necessary
T8D44 4907:588.879    -- Filling invalid ranges in sector buffer (flash cache) for sector @ 0x0001B500 if necessary
T8D44 4907:588.885    -- Filling invalid ranges in sector buffer (flash cache) for sector @ 0x0001B600 if necessary
T8D44 4907:588.892    -- Filling invalid ranges in sector buffer (flash cache) for sector @ 0x0001B700 if necessary
T8D44 4907:588.898    -- Filling invalid ranges in sector buffer (flash cache) for sector @ 0x0001B800 if necessary
T8D44 4907:588.904    -- Filling invalid ranges in sector buffer (flash cache) for sector @ 0x0001B900 if necessary
T8D44 4907:588.910    -- Filling invalid ranges in sector buffer (flash cache) for sector @ 0x0001BA00 if necessary
T8D44 4907:588.916    -- Filling invalid ranges in sector buffer (flash cache) for sector @ 0x0001BB00 if necessary
T8D44 4907:588.922    -- Filling invalid ranges in sector buffer (flash cache) for sector @ 0x0001BC00 if necessary
T8D44 4907:588.928    -- Filling invalid ranges in sector buffer (flash cache) for sector @ 0x0001BD00 if necessary
T8D44 4907:588.934    -- Filling invalid ranges in sector buffer (flash cache) for sector @ 0x0001BE00 if necessary
T8D44 4907:588.940    -- Filling invalid ranges in sector buffer (flash cache) for sector @ 0x0001BF00 if necessary
T8D44 4907:588.946    -- Filling invalid ranges in sector buffer (flash cache) for sector @ 0x0001C000 if necessary
T8D44 4907:588.952    -- Filling invalid ranges in sector buffer (flash cache) for sector @ 0x0001C100 if necessary
T8D44 4907:588.958    -- Filling invalid ranges in sector buffer (flash cache) for sector @ 0x0001C200 if necessary
T8D44 4907:588.964    -- Filling invalid ranges in sector buffer (flash cache) for sector @ 0x0001C300 if necessary
T8D44 4907:588.970    -- Filling invalid ranges in sector buffer (flash cache) for sector @ 0x0001C400 if necessary
T8D44 4907:588.976    -- Filling invalid ranges in sector buffer (flash cache) for sector @ 0x0001C500 if necessary
T8D44 4907:588.982    -- Filling invalid ranges in sector buffer (flash cache) for sector @ 0x0001C600 if necessary
T8D44 4907:588.988    -- Filling invalid ranges in sector buffer (flash cache) for sector @ 0x0001C700 if necessary
T8D44 4907:588.994    -- Filling invalid ranges in sector buffer (flash cache) for sector @ 0x0001C800 if necessary
T8D44 4907:589.009    -- Filling invalid ranges in sector buffer (flash cache) for sector @ 0x0001C900 if necessary
T8D44 4907:589.015    -- Filling invalid ranges in sector buffer (flash cache) for sector @ 0x0001CA00 if necessary
T8D44 4907:589.021    -- Filling invalid ranges in sector buffer (flash cache) for sector @ 0x0001CB00 if necessary
T8D44 4907:589.027    -- Filling invalid ranges in sector buffer (flash cache) for sector @ 0x0001CC00 if necessary
T8D44 4907:589.033    -- Filling invalid ranges in sector buffer (flash cache) for sector @ 0x0001CD00 if necessary
T8D44 4907:589.039    -- Filling invalid ranges in sector buffer (flash cache) for sector @ 0x0001CE00 if necessary
T8D44 4907:589.045    -- Filling invalid ranges in sector buffer (flash cache) for sector @ 0x0001CF00 if necessary
T8D44 4907:589.051    -- Filling invalid ranges in sector buffer (flash cache) for sector @ 0x0001D000 if necessary
T8D44 4907:589.058    -- Filling invalid ranges in sector buffer (flash cache) for sector @ 0x0001D100 if necessary
T8D44 4907:589.064    -- Filling invalid ranges in sector buffer (flash cache) for sector @ 0x0001D200 if necessary
T8D44 4907:589.070    -- Filling invalid ranges in sector buffer (flash cache) for sector @ 0x0001D300 if necessary
T8D44 4907:589.076    -- Filling invalid ranges in sector buffer (flash cache) for sector @ 0x0001D400 if necessary
T8D44 4907:589.082    -- Filling invalid ranges in sector buffer (flash cache) for sector @ 0x0001D500 if necessary
T8D44 4907:589.088    -- Filling invalid ranges in sector buffer (flash cache) for sector @ 0x0001D600 if necessary
T8D44 4907:589.094    -- Filling invalid ranges in sector buffer (flash cache) for sector @ 0x0001D700 if necessary
T8D44 4907:589.100    -- Filling invalid ranges in sector buffer (flash cache) for sector @ 0x0001D800 if necessary
T8D44 4907:589.106    -- Filling invalid ranges in sector buffer (flash cache) for sector @ 0x0001D900 if necessary
T8D44 4907:589.112    -- Filling invalid ranges in sector buffer (flash cache) for sector @ 0x0001DA00 if necessary
T8D44 4907:589.118    -- Filling invalid ranges in sector buffer (flash cache) for sector @ 0x0001DB00 if necessary
T8D44 4907:589.124    -- Filling invalid ranges in sector buffer (flash cache) for sector @ 0x0001DC00 if necessary
T8D44 4907:589.130    -- Filling invalid ranges in sector buffer (flash cache) for sector @ 0x0001DD00 if necessary
T8D44 4907:589.136    -- Filling invalid ranges in sector buffer (flash cache) for sector @ 0x0001DE00 if necessary
T8D44 4907:589.142    -- Filling invalid ranges in sector buffer (flash cache) for sector @ 0x0001DF00 if necessary
T8D44 4907:589.148    -- Filling invalid ranges in sector buffer (flash cache) for sector @ 0x0001E000 if necessary
T8D44 4907:589.154    -- Filling invalid ranges in sector buffer (flash cache) for sector @ 0x0001E100 if necessary
T8D44 4907:589.160    -- Filling invalid ranges in sector buffer (flash cache) for sector @ 0x0001E200 if necessary
T8D44 4907:589.166    -- Filling invalid ranges in sector buffer (flash cache) for sector @ 0x0001E300 if necessary
T8D44 4907:589.172    -- Filling invalid ranges in sector buffer (flash cache) for sector @ 0x0001E400 if necessary
T8D44 4907:589.178    -- Filling invalid ranges in sector buffer (flash cache) for sector @ 0x0001E500 if necessary
T8D44 4907:589.184    -- Filling invalid ranges in sector buffer (flash cache) for sector @ 0x0001E600 if necessary
T8D44 4907:589.190    -- Filling invalid ranges in sector buffer (flash cache) for sector @ 0x0001E700 if necessary
T8D44 4907:589.196    -- Filling invalid ranges in sector buffer (flash cache) for sector @ 0x0001E800 if necessary
T8D44 4907:589.202    -- Filling invalid ranges in sector buffer (flash cache) for sector @ 0x0001E900 if necessary
T8D44 4907:589.208    -- Filling invalid ranges in sector buffer (flash cache) for sector @ 0x0001EA00 if necessary
T8D44 4907:589.215    -- Filling invalid ranges in sector buffer (flash cache) for sector @ 0x0001EB00 if necessary
T8D44 4907:589.221    -- Filling invalid ranges in sector buffer (flash cache) for sector @ 0x0001EC00 if necessary
T8D44 4907:589.228    -- Filling invalid ranges in sector buffer (flash cache) for sector @ 0x0001ED00 if necessary
T8D44 4907:589.234    -- Filling invalid ranges in sector buffer (flash cache) for sector @ 0x0001EE00 if necessary
T8D44 4907:589.240    -- Filling invalid ranges in sector buffer (flash cache) for sector @ 0x0001EF00 if necessary
T8D44 4907:589.246    -- Filling invalid ranges in sector buffer (flash cache) for sector @ 0x0001F000 if necessary
T8D44 4907:589.252    -- Filling invalid ranges in sector buffer (flash cache) for sector @ 0x0001F100 if necessary
T8D44 4907:589.258    -- Filling invalid ranges in sector buffer (flash cache) for sector @ 0x0001F200 if necessary
T8D44 4907:589.264    -- Filling invalid ranges in sector buffer (flash cache) for sector @ 0x0001F300 if necessary
T8D44 4907:589.270    -- Filling invalid ranges in sector buffer (flash cache) for sector @ 0x0001F400 if necessary
T8D44 4907:589.276    -- Filling invalid ranges in sector buffer (flash cache) for sector @ 0x0001F500 if necessary
T8D44 4907:589.283    -- Filling invalid ranges in sector buffer (flash cache) for sector @ 0x0001F600 if necessary
T8D44 4907:589.289    -- Filling invalid ranges in sector buffer (flash cache) for sector @ 0x0001F700 if necessary
T8D44 4907:589.295    -- Filling invalid ranges in sector buffer (flash cache) for sector @ 0x0001F800 if necessary
T8D44 4907:589.301    -- Filling invalid ranges in sector buffer (flash cache) for sector @ 0x0001F900 if necessary
T8D44 4907:589.307    -- Filling invalid ranges in sector buffer (flash cache) for sector @ 0x0001FA00 if necessary
T8D44 4907:589.313    -- Filling invalid ranges in sector buffer (flash cache) for sector @ 0x0001FB00 if necessary
T8D44 4907:589.319    -- Filling invalid ranges in sector buffer (flash cache) for sector @ 0x0001FC00 if necessary
T8D44 4907:589.325    -- Filling invalid ranges in sector buffer (flash cache) for sector @ 0x0001FD00 if necessary
T8D44 4907:589.331    -- Filling invalid ranges in sector buffer (flash cache) for sector @ 0x0001FE00 if necessary
T8D44 4907:589.337    -- Filling invalid ranges in sector buffer (flash cache) for sector @ 0x0001FF00 if necessary
T8D44 4907:589.343    -- Filling invalid ranges in sector buffer (flash cache) for sector @ 0x00020000 if necessary
T8D44 4907:589.349    -- Filling invalid ranges in sector buffer (flash cache) for sector @ 0x00020100 if necessary
T8D44 4907:589.355    -- Filling invalid ranges in sector buffer (flash cache) for sector @ 0x00020200 if necessary
T8D44 4907:589.361    -- Filling invalid ranges in sector buffer (flash cache) for sector @ 0x00020300 if necessary
T8D44 4907:589.367    -- Filling invalid ranges in sector buffer (flash cache) for sector @ 0x00020400 if necessary
T8D44 4907:589.373    -- Filling invalid ranges in sector buffer (flash cache) for sector @ 0x00020500 if necessary
T8D44 4907:589.379    -- Filling invalid ranges in sector buffer (flash cache) for sector @ 0x00020600 if necessary
T8D44 4907:589.386    -- Filling invalid ranges in sector buffer (flash cache) for sector @ 0x00020700 if necessary
T8D44 4907:589.392    -- Filling invalid ranges in sector buffer (flash cache) for sector @ 0x00020800 if necessary
T8D44 4907:589.398    -- Filling invalid ranges in sector buffer (flash cache) for sector @ 0x00020900 if necessary
T8D44 4907:589.404    -- Filling invalid ranges in sector buffer (flash cache) for sector @ 0x00020A00 if necessary
T8D44 4907:589.410    -- Filling invalid ranges in sector buffer (flash cache) for sector @ 0x00020B00 if necessary
T8D44 4907:589.416    -- Filling invalid ranges in sector buffer (flash cache) for sector @ 0x00020C00 if necessary
T8D44 4907:589.422    -- Filling invalid ranges in sector buffer (flash cache) for sector @ 0x00020D00 if necessary
T8D44 4907:589.428    -- Filling invalid ranges in sector buffer (flash cache) for sector @ 0x00020E00 if necessary
T8D44 4907:589.434    -- Filling invalid ranges in sector buffer (flash cache) for sector @ 0x00020F00 if necessary
T8D44 4907:589.453    -- Filling invalid ranges in sector buffer (flash cache) for sector @ 0x00021000 if necessary
T8D44 4907:589.459    -- Filling invalid ranges in sector buffer (flash cache) for sector @ 0x00021100 if necessary
T8D44 4907:589.465    -- Filling invalid ranges in sector buffer (flash cache) for sector @ 0x00021200 if necessary
T8D44 4907:589.471    -- Filling invalid ranges in sector buffer (flash cache) for sector @ 0x00021300 if necessary
T8D44 4907:589.477    -- Filling invalid ranges in sector buffer (flash cache) for sector @ 0x00021400 if necessary
T8D44 4907:589.483    -- Filling invalid ranges in sector buffer (flash cache) for sector @ 0x00021500 if necessary
T8D44 4907:589.489    -- Filling invalid ranges in sector buffer (flash cache) for sector @ 0x00021600 if necessary
T8D44 4907:589.495    -- Filling invalid ranges in sector buffer (flash cache) for sector @ 0x00021700 if necessary
T8D44 4907:589.501    -- Filling invalid ranges in sector buffer (flash cache) for sector @ 0x00021800 if necessary
T8D44 4907:589.507    -- Filling invalid ranges in sector buffer (flash cache) for sector @ 0x00021900 if necessary
T8D44 4907:589.517    -- Filling invalid ranges in sector buffer (flash cache) for sector @ 0x00021A00 if necessary
T8D44 4907:589.523    -- Filling invalid ranges in sector buffer (flash cache) for sector @ 0x00021B00 if necessary
T8D44 4907:589.530    -- Filling invalid ranges in sector buffer (flash cache) for sector @ 0x00021C00 if necessary
T8D44 4907:589.536    -- Filling invalid ranges in sector buffer (flash cache) for sector @ 0x00021D00 if necessary
T8D44 4907:589.542    -- Filling invalid ranges in sector buffer (flash cache) for sector @ 0x00021E00 if necessary
T8D44 4907:589.548    -- Filling invalid ranges in sector buffer (flash cache) for sector @ 0x00021F00 if necessary
T8D44 4907:589.554    -- Filling invalid ranges in sector buffer (flash cache) for sector @ 0x00022000 if necessary
T8D44 4907:589.560    -- Filling invalid ranges in sector buffer (flash cache) for sector @ 0x00022100 if necessary
T8D44 4907:589.566    -- Filling invalid ranges in sector buffer (flash cache) for sector @ 0x00022200 if necessary
T8D44 4907:589.572    -- Filling invalid ranges in sector buffer (flash cache) for sector @ 0x00022300 if necessary
T8D44 4907:589.578    -- Filling invalid ranges in sector buffer (flash cache) for sector @ 0x00022400 if necessary
T8D44 4907:589.584    -- Filling invalid ranges in sector buffer (flash cache) for sector @ 0x00022500 if necessary
T8D44 4907:589.590    -- Filling invalid ranges in sector buffer (flash cache) for sector @ 0x00022600 if necessary
T8D44 4907:589.596    -- Filling invalid ranges in sector buffer (flash cache) for sector @ 0x00022700 if necessary
T8D44 4907:589.602    -- Filling invalid ranges in sector buffer (flash cache) for sector @ 0x00022800 if necessary
T8D44 4907:589.608    -- Filling invalid ranges in sector buffer (flash cache) for sector @ 0x00022900 if necessary
T8D44 4907:589.614    -- Filling invalid ranges in sector buffer (flash cache) for sector @ 0x00022A00 if necessary
T8D44 4907:589.620    -- Filling invalid ranges in sector buffer (flash cache) for sector @ 0x00022B00 if necessary
T8D44 4907:589.627    -- Filling invalid ranges in sector buffer (flash cache) for sector @ 0x00022C00 if necessary
T8D44 4907:589.633    -- Filling invalid ranges in sector buffer (flash cache) for sector @ 0x00022D00 if necessary
T8D44 4907:589.639    -- Filling invalid ranges in sector buffer (flash cache) for sector @ 0x00022E00 if necessary
T8D44 4907:589.645    -- Filling invalid ranges in sector buffer (flash cache) for sector @ 0x00022F00 if necessary
T8D44 4907:589.651    -- Filling invalid ranges in sector buffer (flash cache) for sector @ 0x00023000 if necessary
T8D44 4907:589.657    -- Filling invalid ranges in sector buffer (flash cache) for sector @ 0x00023100 if necessary
T8D44 4907:589.663    -- Filling invalid ranges in sector buffer (flash cache) for sector @ 0x00023200 if necessary
T8D44 4907:589.679    -- Filling invalid ranges in sector buffer (flash cache) for sector @ 0x00023300 if necessary
T8D44 4907:589.685    -- Filling invalid ranges in sector buffer (flash cache) for sector @ 0x00023400 if necessary
T8D44 4907:589.692    -- Filling invalid ranges in sector buffer (flash cache) for sector @ 0x00023500 if necessary
T8D44 4907:589.698    -- Filling invalid ranges in sector buffer (flash cache) for sector @ 0x00023600 if necessary
T8D44 4907:589.704    -- Filling invalid ranges in sector buffer (flash cache) for sector @ 0x00023700 if necessary
T8D44 4907:589.710    -- Filling invalid ranges in sector buffer (flash cache) for sector @ 0x00023800 if necessary
T8D44 4907:589.716    -- Filling invalid ranges in sector buffer (flash cache) for sector @ 0x00023900 if necessary
T8D44 4907:589.722    -- Filling invalid ranges in sector buffer (flash cache) for sector @ 0x00023A00 if necessary
T8D44 4907:589.728    -- Filling invalid ranges in sector buffer (flash cache) for sector @ 0x00023B00 if necessary
T8D44 4907:589.734    -- Filling invalid ranges in sector buffer (flash cache) for sector @ 0x00023C00 if necessary
T8D44 4907:589.740    -- Filling invalid ranges in sector buffer (flash cache) for sector @ 0x00023D00 if necessary
T8D44 4907:589.746    -- Filling invalid ranges in sector buffer (flash cache) for sector @ 0x00023E00 if necessary
T8D44 4907:589.752    -- Filling invalid ranges in sector buffer (flash cache) for sector @ 0x00023F00 if necessary
T8D44 4907:589.759    -- Filling invalid ranges in sector buffer (flash cache) for sector @ 0x00024000 if necessary
T8D44 4907:589.765    -- Filling invalid ranges in sector buffer (flash cache) for sector @ 0x00024100 if necessary
T8D44 4907:589.771    -- Filling invalid ranges in sector buffer (flash cache) for sector @ 0x00024200 if necessary
T8D44 4907:589.777    -- Filling invalid ranges in sector buffer (flash cache) for sector @ 0x00024300 if necessary
T8D44 4907:589.783    -- Filling invalid ranges in sector buffer (flash cache) for sector @ 0x00024400 if necessary
T8D44 4907:589.789    -- Filling invalid ranges in sector buffer (flash cache) for sector @ 0x00024500 if necessary
T8D44 4907:589.795    -- Filling invalid ranges in sector buffer (flash cache) for sector @ 0x00024600 if necessary
T8D44 4907:589.801    -- Filling invalid ranges in sector buffer (flash cache) for sector @ 0x00024700 if necessary
T8D44 4907:589.807    -- Filling invalid ranges in sector buffer (flash cache) for sector @ 0x00024800 if necessary
T8D44 4907:589.813    -- Filling invalid ranges in sector buffer (flash cache) for sector @ 0x00024900 if necessary
T8D44 4907:589.819    -- Filling invalid ranges in sector buffer (flash cache) for sector @ 0x00024A00 if necessary
T8D44 4907:589.826    -- Filling invalid ranges in sector buffer (flash cache) for sector @ 0x00024B00 if necessary
T8D44 4907:589.832    -- Filling invalid ranges in sector buffer (flash cache) for sector @ 0x00024C00 if necessary
T8D44 4907:589.838    -- Filling invalid ranges in sector buffer (flash cache) for sector @ 0x00024D00 if necessary
T8D44 4907:589.844    -- Filling invalid ranges in sector buffer (flash cache) for sector @ 0x00024E00 if necessary
T8D44 4907:589.850    -- Filling invalid ranges in sector buffer (flash cache) for sector @ 0x00024F00 if necessary
T8D44 4907:589.856    -- Filling invalid ranges in sector buffer (flash cache) for sector @ 0x00025000 if necessary
T8D44 4907:589.862    -- Filling invalid ranges in sector buffer (flash cache) for sector @ 0x00025100 if necessary
T8D44 4907:589.868    -- Filling invalid ranges in sector buffer (flash cache) for sector @ 0x00025200 if necessary
T8D44 4907:589.874    -- Filling invalid ranges in sector buffer (flash cache) for sector @ 0x00025300 if necessary
T8D44 4907:589.880    -- Filling invalid ranges in sector buffer (flash cache) for sector @ 0x00025400 if necessary
T8D44 4907:589.886    -- Filling invalid ranges in sector buffer (flash cache) for sector @ 0x00025500 if necessary
T8D44 4907:589.893    -- Filling invalid ranges in sector buffer (flash cache) for sector @ 0x00025600 if necessary
T8D44 4907:589.899    -- Filling invalid ranges in sector buffer (flash cache) for sector @ 0x00025700 if necessary
T8D44 4907:589.905    -- Filling invalid ranges in sector buffer (flash cache) for sector @ 0x00025800 if necessary
T8D44 4907:589.911    -- Filling invalid ranges in sector buffer (flash cache) for sector @ 0x00025900 if necessary
T8D44 4907:589.917    -- Filling invalid ranges in sector buffer (flash cache) for sector @ 0x00025A00 if necessary
T8D44 4907:589.924    -- Filling invalid ranges in sector buffer (flash cache) for sector @ 0x00025B00 if necessary
T8D44 4907:589.930    -- Filling invalid ranges in sector buffer (flash cache) for sector @ 0x00025C00 if necessary
T8D44 4907:589.936    -- Filling invalid ranges in sector buffer (flash cache) for sector @ 0x00025D00 if necessary
T8D44 4907:589.942    -- Filling invalid ranges in sector buffer (flash cache) for sector @ 0x00025E00 if necessary
T8D44 4907:589.948    -- Filling invalid ranges in sector buffer (flash cache) for sector @ 0x00025F00 if necessary
T8D44 4907:589.954    -- Filling invalid ranges in sector buffer (flash cache) for sector @ 0x00026000 if necessary
T8D44 4907:589.960    -- Filling invalid ranges in sector buffer (flash cache) for sector @ 0x00026100 if necessary
T8D44 4907:589.966    -- Filling invalid ranges in sector buffer (flash cache) for sector @ 0x00026200 if necessary
T8D44 4907:589.972    -- Filling invalid ranges in sector buffer (flash cache) for sector @ 0x00026300 if necessary
T8D44 4907:589.978    -- Filling invalid ranges in sector buffer (flash cache) for sector @ 0x00026400 if necessary
T8D44 4907:589.984    -- Filling invalid ranges in sector buffer (flash cache) for sector @ 0x00026500 if necessary
T8D44 4907:589.991    -- Filling invalid ranges in sector buffer (flash cache) for sector @ 0x00026600 if necessary
T8D44 4907:589.997    -- Filling invalid ranges in sector buffer (flash cache) for sector @ 0x00026700 if necessary
T8D44 4907:590.017    -- End of determining dirty areas
T8D44 4907:590.023    -- Start of preparing flash programming
T8D44 4907:590.029    -- Calculating RAM usage
T8D44 4907:590.040    -- RAM usage = 5956 Bytes
T8D44 4907:590.046    -- Preserving CPU registers
T8D44 4907:590.060    -- Preparing target
T8D44 4907:590.067    -- Preserving target RAM temporarily used for programming
T8D44 4907:621.567    -- Downloading RAMCode
T8D44 4907:638.138    -- Preparing RAMCode
T8D44 4907:643.460    -- End of preparing flash programming
T8D44 4907:649.255    -- CPU speed could not be measured.
T8D44 4907:649.274    -- Start of comparing flash
T8D44 4907:649.281    -- CRC check was estimated as fastest method
T8D44 4907:684.360    -- Comparing range 0x12000 - 0x21FFF (256 Sectors, 64 KB), using multi-block CRC calculation
T8D44 4907:736.189    -- All CRCs match
T8D44 4907:736.461    -- Comparing range 0x22000 - 0x267FF (72 Sectors, 18 KB), using multi-block CRC calculation
T8D44 4907:752.160    -- All CRCs match
T8D44 4907:752.453    -- Comparing range 0x12000 - 0x21FFF (256 Sectors, 64 KB), using alternative multi-block CRC calculation
T8D44 4907:800.598    -- All CRCs match
T8D44 4907:800.825    -- Comparing range 0x22000 - 0x267FF (72 Sectors, 18 KB), using alternative multi-block CRC calculation
T8D44 4907:816.449    -- All CRCs match
T8D44 4907:816.477    -- End of comparing flash
T8D44 4907:816.484    -- Start of erasing sectors
T8D44 4907:816.490    -- End of erasing sectors
T8D44 4907:816.496    -- Start of flash programming
T8D44 4907:816.502    -- End of flash programming
T8D44 4907:816.508    -- Start of restoring
T8D44 4907:816.514    -- Restoring RAMCode
T8D44 4907:820.320    -- Restoring target memory
T8D44 4907:850.409    -- Restore target
T8D44 4907:850.436    -- Restoring CPU registers
T8D44 4907:850.451    -- End of restoring
T8D44 4907:850.497    -- Bank 0 @ 0x00000000: Skipped. Contents already match
T8D44 4907:850.505    -- Bank 0 @ 0x00000000: Skipped. Contents already match
T8D44 4907:859.201 - 272.033ms returns 0 (0x0)
T8D44 4907:859.281 JLINK_SetResetType(JLINKARM_CM3_RESET_TYPE_NORMAL)
T8D44 4907:859.287 - 0.005ms returns JLINKARM_CM3_RESET_TYPE_NORMAL
T8D44 4907:859.292 JLINK_Reset()
T8D44 4907:859.302   CPU_ReadMem(4 bytes @ 0x20000000)
T8D44 4907:859.635   CPU_WriteMem(4 bytes @ 0x20000000)
T8D44 4907:859.975   ResetTarget() start
T8D44 4907:859.988    J-Link Script File: Executing ResetTarget()
T8D44 4907:859.998   CPU_ReadMem(4 bytes @ 0xE000EDFC)
T8D44 4907:860.368   CPU_WriteMem(4 bytes @ 0xE000EDFC)
T8D44 4907:860.694   CPU_WriteMem(4 bytes @ 0xE000ED0C)
T8D44 4907:862.613   CPU_ReadMem(4 bytes @ 0xE000EDF0)
T8D44 4907:862.990   CPU_ReadMem(4 bytes @ 0x41002100)
T8D44 4907:863.281   CPU_WriteMem(4 bytes @ 0xE000EDFC)
T8D44 4907:863.641   ResetTarget() end - Took 3.61ms
T8D44 4907:867.100   CPU_WriteMem(4 bytes @ 0xE0002000)
T8D44 4907:867.497   CPU_ReadMem(4 bytes @ 0xE000EDFC)
T8D44 4907:867.899   CPU_ReadMem(4 bytes @ 0xE0001000)
T8D44 4907:868.437   CPU_WriteMem(4 bytes @ 0xE0001000)
T8D44 4907:868.803 - 9.511ms
T1E58 4907:946.293 JLINK_IsHalted()
T1E58 4907:946.314 - 0.019ms returns TRUE
T68D0 4907:985.526 JLINK_Halt()
T68D0 4907:985.543 - 0.016ms returns 0x00
T68D0 4907:985.560 JLINK_ReadReg(R15 (PC))
T68D0 4907:985.567 - 0.007ms returns 0x0000702C
T68D0 4907:985.573 JLINK_ReadReg(R13 (SP))
T68D0 4907:985.578 - 0.004ms returns 0x20002D08
T68D0 4907:988.096 JLINK_ReadMemHW(0x0000702C, 0x0004 Bytes, ...)
T68D0 4907:988.111   CPU_ReadMem(4 bytes @ 0x0000702C)
T68D0 4907:988.448   Data:  80 B5 82 B0
T68D0 4907:988.460 - 0.364ms returns 0
T68D0 4907:988.707 JLINK_ReadReg(R0)
T68D0 4907:988.719 - 0.011ms returns 0x00000000
T68D0 4907:988.726 JLINK_ReadReg(R1)
T68D0 4907:988.730 - 0.004ms returns 0x00000000
T68D0 4907:988.736 JLINK_ReadReg(R2)
T68D0 4907:988.740 - 0.004ms returns 0x00000000
T68D0 4907:988.745 JLINK_ReadReg(R3)
T68D0 4907:988.750 - 0.004ms returns 0x00000000
T68D0 4907:988.755 JLINK_ReadReg(R4)
T68D0 4907:988.759 - 0.004ms returns 0x200006B4
T68D0 4907:988.764 JLINK_ReadReg(R5)
T68D0 4907:988.769 - 0.004ms returns 0x200006D4
T68D0 4907:988.775 JLINK_ReadReg(R6)
T68D0 4907:988.779 - 0.004ms returns 0x200006D4
T68D0 4907:988.785 JLINK_ReadReg(R7)
T68D0 4907:988.789 - 0.004ms returns 0x20006AE8
T68D0 4907:988.795 JLINK_ReadReg(R8)
T68D0 4907:988.799 - 0.004ms returns 0xA5A5A5A5
T68D0 4907:988.804 JLINK_ReadReg(R9)
T68D0 4907:988.808 - 0.004ms returns 0xA5A5A5A5
T68D0 4907:988.814 JLINK_ReadReg(R10)
T68D0 4907:988.818 - 0.004ms returns 0xA5A5A5A5
T68D0 4907:988.823 JLINK_ReadReg(R11)
T68D0 4907:988.827 - 0.003ms returns 0xA5A5A5A5
T68D0 4907:988.832 JLINK_ReadReg(R12)
T68D0 4907:988.836 - 0.004ms returns 0x20000638
T68D0 4907:988.842 JLINK_ReadReg(R13 (SP))
T68D0 4907:988.846 - 0.004ms returns 0x20002D08
T68D0 4907:988.851 JLINK_ReadReg(R14)
T68D0 4907:988.855 - 0.003ms returns 0x20000341
T68D0 4907:988.860 JLINK_ReadReg(R15 (PC))
T68D0 4907:988.864 - 0.004ms returns 0x0000702C
T68D0 4907:988.875 JLINK_ReadReg(XPSR)
T68D0 4907:988.879 - 0.004ms returns 0x61000000
T68D0 4907:988.884 JLINK_ReadReg(MSP)
T68D0 4907:988.888 - 0.004ms returns 0x20002D08
T68D0 4907:988.894 JLINK_ReadReg(PSP)
T68D0 4907:988.899 - 0.005ms returns 0x20001AB8
T68D0 4907:988.904 JLINK_ReadReg(PRIMASK)
T68D0 4907:988.909 - 0.004ms returns 0x00000000
T68D0 4907:988.914 JLINK_ReadReg(BASEPRI)
T68D0 4907:988.918 - 0.004ms returns 0x00000000
T68D0 4907:988.923 JLINK_ReadReg(FAULTMASK)
T68D0 4907:988.927 - 0.004ms returns 0x00000000
T68D0 4907:988.933 JLINK_ReadReg(CONTROL)
T68D0 4907:988.937 - 0.004ms returns 0x00000000
T68D0 4907:989.144 JLINK_ReadMemHW(0x0000702C, 0x0002 Bytes, ...)
T68D0 4907:989.155   CPU_ReadMem(2 bytes @ 0x0000702C)
T68D0 4907:989.453   Data:  80 B5
T68D0 4907:989.464 - 0.320ms returns 0
T68D0 4908:043.177 JLINK_ReadReg(R0)
T68D0 4908:043.198 - 0.020ms returns 0x00000000
T68D0 4908:043.209 JLINK_ReadReg(R1)
T68D0 4908:043.213 - 0.004ms returns 0x00000000
T68D0 4908:043.219 JLINK_ReadReg(R2)
T68D0 4908:043.223 - 0.004ms returns 0x00000000
T68D0 4908:043.228 JLINK_ReadReg(R3)
T68D0 4908:043.243 - 0.013ms returns 0x00000000
T68D0 4908:043.270 JLINK_ReadReg(R4)
T68D0 4908:043.275 - 0.004ms returns 0x200006B4
T68D0 4908:043.281 JLINK_ReadReg(R5)
T68D0 4908:043.285 - 0.004ms returns 0x200006D4
T68D0 4908:043.290 JLINK_ReadReg(R6)
T68D0 4908:043.294 - 0.004ms returns 0x200006D4
T68D0 4908:043.300 JLINK_ReadReg(R7)
T68D0 4908:043.304 - 0.004ms returns 0x20006AE8
T68D0 4908:043.310 JLINK_ReadReg(R8)
T68D0 4908:043.314 - 0.004ms returns 0xA5A5A5A5
T68D0 4908:043.319 JLINK_ReadReg(R9)
T68D0 4908:043.323 - 0.004ms returns 0xA5A5A5A5
T68D0 4908:043.329 JLINK_ReadReg(R10)
T68D0 4908:043.333 - 0.004ms returns 0xA5A5A5A5
T68D0 4908:043.338 JLINK_ReadReg(R11)
T68D0 4908:043.342 - 0.004ms returns 0xA5A5A5A5
T68D0 4908:043.348 JLINK_ReadReg(R12)
T68D0 4908:043.354 - 0.006ms returns 0x20000638
T68D0 4908:043.359 JLINK_ReadReg(R13 (SP))
T68D0 4908:043.363 - 0.004ms returns 0x20002D08
T68D0 4908:043.369 JLINK_ReadReg(R14)
T68D0 4908:043.373 - 0.004ms returns 0x20000341
T68D0 4908:043.378 JLINK_ReadReg(R15 (PC))
T68D0 4908:043.382 - 0.004ms returns 0x0000702C
